#-----------------------------------------------------------
# Vivado v2025.2.1 (64-bit)
# SW Build 6403652 on Thu Mar 19 13:47:00 MDT 2026
# IP Build 6403511 on Thu Mar 19 12:41:45 MDT 2026
# SharedData Build 6403650 on Thu Mar 19 14:02:13 MDT 2026
# Start of session at: Wed Apr 22 13:03:05 2026
# Process ID         : 1386090
# Current directory  : /home/ianblenke/github.com/ianblenke/carnot/hardware/kv260
# Command line       : vivado -mode batch -source inspect_axi_nets.tcl -log axi_net_inspection.log -journal /dev/null
# Log file           : /home/ianblenke/github.com/ianblenke/carnot/hardware/kv260/axi_net_inspection.log
# Journal file       : /dev/null
# Running On         : icbfl1
# Platform           : cachyos
# Operating System   : CachyOS
# Processor Detail   : AMD Ryzen AI 9 HX 370 w/ Radeon 890M
# CPU Frequency      : 3595.302 MHz
# CPU Physical cores : 12
# CPU Logical cores  : 24
# Host memory        : 134305 MB
# Swap memory        : 271743 MB
# Total Virtual      : 406049 MB
# Available Virtual  : 378371 MB
#-----------------------------------------------------------
source inspect_axi_nets.tcl
# set dcp "../../output/carnot_ising_bd/project/carnot_ising.runs/impl_1/carnot_ising_bd_wrapper_routed.dcp"
# puts "=== Opening $dcp ==="
=== Opening ../../output/carnot_ising_bd/project/carnot_ising.runs/impl_1/carnot_ising_bd_wrapper_routed.dcp ===
# open_checkpoint $dcp
Command: open_checkpoint ../../output/carnot_ising_bd/project/carnot_ising.runs/impl_1/carnot_ising_bd_wrapper_routed.dcp

Starting open_checkpoint Task

Time (s): cpu = 00:00:00.05 ; elapsed = 00:00:00.02 . Memory (MB): peak = 1456.969 ; gain = 0.000 ; free physical = 78037 ; free virtual = 360521
INFO: [Device 21-403] Loading part xck26-sfvc784-2LV-c
Netlist sorting complete. Time (s): cpu = 00:00:00.51 ; elapsed = 00:00:00.51 . Memory (MB): peak = 2601.988 ; gain = 0.000 ; free physical = 76798 ; free virtual = 359283
INFO: [Netlist 29-17] Analyzing 16683 Unisim elements for replacement
INFO: [Netlist 29-28] Unisim Transformation completed in 5 CPU seconds
WARNING: [Netlist 29-43] Netlist 'carnot_ising_bd_wrapper' is not ideal for floorplanning, since the cellview 'carnot_ising_bd_ising_sampler_0_0_ising_sampler_128_sync' defined in file 'carnot_ising_bd_ising_sampler_0_0.edf' contains large number of primitives.  Please consider enabling hierarchy in synthesis if you want to do floorplanning.
INFO: [Project 1-479] Netlist was created with Vivado 2025.2.1
INFO: [Project 1-570] Preparing netlist for logic optimization
Read ShapeDB Complete: Time (s): cpu = 00:00:00.12 ; elapsed = 00:00:00.12 . Memory (MB): peak = 2798.082 ; gain = 23.852 ; free physical = 76663 ; free virtual = 359148
INFO: [Timing 38-478] Restoring timing data from binary archive.
INFO: [Timing 38-479] Binary timing data restore complete.
INFO: [Project 1-856] Restoring constraints from binary archive.
INFO: [Project 1-853] Binary constraint restore complete.
INFO: [Designutils 20-5722] Start Reading Physical Databases.
Reading placement.
Read Netlist Cache: Time (s): cpu = 00:00:00.17 ; elapsed = 00:00:00.17 . Memory (MB): peak = 3909.762 ; gain = 0.000 ; free physical = 75802 ; free virtual = 358287
Reading placer database...
Read Device Cache: Time (s): cpu = 00:00:00.04 ; elapsed = 00:00:00.04 . Memory (MB): peak = 3909.762 ; gain = 0.000 ; free physical = 75804 ; free virtual = 358289
Read PlaceDB: Time (s): cpu = 00:00:05 ; elapsed = 00:00:05 . Memory (MB): peak = 4054.426 ; gain = 144.664 ; free physical = 75580 ; free virtual = 358064
Read PulsedLatchDB: Time (s): cpu = 00:00:00 ; elapsed = 00:00:00 . Memory (MB): peak = 4054.426 ; gain = 0.000 ; free physical = 75579 ; free virtual = 358064
Reading routing.
Read RouteStorage: Time (s): cpu = 00:00:08 ; elapsed = 00:00:06 . Memory (MB): peak = 4540.426 ; gain = 486.000 ; free physical = 75065 ; free virtual = 357550
Read Physdb Files: Time (s): cpu = 00:00:13 ; elapsed = 00:00:12 . Memory (MB): peak = 4540.426 ; gain = 630.664 ; free physical = 75060 ; free virtual = 357545
Restored from archive | CPU: 13.350000 secs | Memory: 618.532303 MB |
Finished XDEF File Restore: Time (s): cpu = 00:00:13 ; elapsed = 00:00:12 . Memory (MB): peak = 4540.426 ; gain = 630.664 ; free physical = 75072 ; free virtual = 357557
Netlist sorting complete. Time (s): cpu = 00:00:00.02 ; elapsed = 00:00:00.02 . Memory (MB): peak = 4540.426 ; gain = 0.000 ; free physical = 75087 ; free virtual = 357572
INFO: [Project 1-111] Unisim Transformation Summary:
  A total of 1088 instances were transformed.
  DSP48E2 => DSP48E2 (DSP_ALU, DSP_A_B_DATA, DSP_C_DATA, DSP_MULTIPLIER, DSP_M_DATA, DSP_OUTPUT, DSP_PREADD, DSP_PREADD_DATA): 1024 instances
  DSP48E2 => DSP48E2 (inverted pins: RSTA) (DSP_ALU, DSP_A_B_DATA, DSP_C_DATA, DSP_MULTIPLIER, DSP_M_DATA, DSP_OUTPUT, DSP_PREADD, DSP_PREADD_DATA): 64 instances

INFO: [Project 1-604] Checkpoint was created with Vivado v2025.2.1 (64-bit) build 6403652
open_checkpoint: Time (s): cpu = 00:01:12 ; elapsed = 00:00:46 . Memory (MB): peak = 4540.461 ; gain = 3083.492 ; free physical = 75091 ; free virtual = 357576
# puts ""

# puts "=== searching for sampler instance ==="
=== searching for sampler instance ===
# set patterns [list \
#     {*/ising_sampler_0*inst} \
#     {*/ising_sampler_0} \
#     {*ising_sampler_0/inst} \
# ]
# set sampler ""
# foreach pat $patterns {
#     set hits [get_cells -hierarchical -filter "NAME =~ $pat"]
#     set n [llength $hits]
#     puts "  pattern $pat -> $n hits"
#     if {$n >= 1 && $sampler eq ""} {
#         set sampler [lindex $hits 0]
#     }
# }
  pattern */ising_sampler_0*inst -> 1 hits
  pattern */ising_sampler_0 -> 1 hits
  pattern *ising_sampler_0/inst -> 1 hits
# if {$sampler eq ""} {
#     # Fall back: any cell that has an S_AXI_ACLK pin.
#     puts ""
#     puts "=== fallback: search by S_AXI_ACLK pin ==="
#     set pins [get_pins -hierarchical -filter {REF_PIN_NAME == "S_AXI_ACLK"}]
#     puts "  [llength $pins] pins named S_AXI_ACLK found in hierarchy:"
#     foreach p $pins { puts "    $p" }
#     if {[llength $pins] > 0} {
#         set sampler [get_cells -of_objects [lindex $pins 0]]
#     }
# }
# if {$sampler eq ""} {
#     puts "FATAL: no candidate sampler cell found"
#     close_design
#     exit 1
# }
# puts ""

# puts "  sampler cell: $sampler"
  sampler cell: carnot_ising_bd_i/ising_sampler_0/inst
# puts "  REF_NAME:     [get_property REF_NAME [get_cells $sampler]]"
  REF_NAME:     carnot_ising_bd_ising_sampler_0_0_ising_sampler_128_sync
# puts ""

# puts "=== S_AXI_* pins on this cell ==="
=== S_AXI_* pins on this cell ===
# foreach p [get_pins -of_objects $sampler -filter {REF_PIN_NAME =~ "S_AXI_*"}] {
#     set rp [get_property REF_PIN_NAME $p]
#     set dir [get_property DIRECTION $p]
#     puts "  $rp  ($dir)"
# }
  S_AXI_ACLK  (IN)
  S_AXI_ARADDR[0]  (IN)
  S_AXI_ARADDR[10]  (IN)
  S_AXI_ARADDR[11]  (IN)
  S_AXI_ARADDR[12]  (IN)
  S_AXI_ARADDR[13]  (IN)
  S_AXI_ARADDR[14]  (IN)
  S_AXI_ARADDR[15]  (IN)
  S_AXI_ARADDR[16]  (IN)
  S_AXI_ARADDR[1]  (IN)
  S_AXI_ARADDR[2]  (IN)
  S_AXI_ARADDR[3]  (IN)
  S_AXI_ARADDR[4]  (IN)
  S_AXI_ARADDR[5]  (IN)
  S_AXI_ARADDR[6]  (IN)
  S_AXI_ARADDR[7]  (IN)
  S_AXI_ARADDR[8]  (IN)
  S_AXI_ARADDR[9]  (IN)
  S_AXI_ARESETN  (IN)
  S_AXI_ARREADY  (OUT)
  S_AXI_ARVALID  (IN)
  S_AXI_AWADDR[0]  (IN)
  S_AXI_AWADDR[10]  (IN)
  S_AXI_AWADDR[11]  (IN)
  S_AXI_AWADDR[12]  (IN)
  S_AXI_AWADDR[13]  (IN)
  S_AXI_AWADDR[14]  (IN)
  S_AXI_AWADDR[15]  (IN)
  S_AXI_AWADDR[16]  (IN)
  S_AXI_AWADDR[1]  (IN)
  S_AXI_AWADDR[2]  (IN)
  S_AXI_AWADDR[3]  (IN)
  S_AXI_AWADDR[4]  (IN)
  S_AXI_AWADDR[5]  (IN)
  S_AXI_AWADDR[6]  (IN)
  S_AXI_AWADDR[7]  (IN)
  S_AXI_AWADDR[8]  (IN)
  S_AXI_AWADDR[9]  (IN)
  S_AXI_AWREADY  (OUT)
  S_AXI_AWVALID  (IN)
  S_AXI_BREADY  (IN)
  S_AXI_BVALID  (OUT)
  S_AXI_RDATA[0]  (OUT)
  S_AXI_RDATA[10]  (OUT)
  S_AXI_RDATA[11]  (OUT)
  S_AXI_RDATA[12]  (OUT)
  S_AXI_RDATA[13]  (OUT)
  S_AXI_RDATA[14]  (OUT)
  S_AXI_RDATA[15]  (OUT)
  S_AXI_RDATA[16]  (OUT)
  S_AXI_RDATA[17]  (OUT)
  S_AXI_RDATA[18]  (OUT)
  S_AXI_RDATA[19]  (OUT)
  S_AXI_RDATA[1]  (OUT)
  S_AXI_RDATA[20]  (OUT)
  S_AXI_RDATA[21]  (OUT)
  S_AXI_RDATA[22]  (OUT)
  S_AXI_RDATA[23]  (OUT)
  S_AXI_RDATA[24]  (OUT)
  S_AXI_RDATA[25]  (OUT)
  S_AXI_RDATA[26]  (OUT)
  S_AXI_RDATA[27]  (OUT)
  S_AXI_RDATA[28]  (OUT)
  S_AXI_RDATA[29]  (OUT)
  S_AXI_RDATA[2]  (OUT)
  S_AXI_RDATA[30]  (OUT)
  S_AXI_RDATA[31]  (OUT)
  S_AXI_RDATA[3]  (OUT)
  S_AXI_RDATA[4]  (OUT)
  S_AXI_RDATA[5]  (OUT)
  S_AXI_RDATA[6]  (OUT)
  S_AXI_RDATA[7]  (OUT)
  S_AXI_RDATA[8]  (OUT)
  S_AXI_RDATA[9]  (OUT)
  S_AXI_RREADY  (IN)
  S_AXI_RVALID  (OUT)
  S_AXI_WDATA[0]  (IN)
  S_AXI_WDATA[10]  (IN)
  S_AXI_WDATA[11]  (IN)
  S_AXI_WDATA[12]  (IN)
  S_AXI_WDATA[13]  (IN)
  S_AXI_WDATA[14]  (IN)
  S_AXI_WDATA[15]  (IN)
  S_AXI_WDATA[16]  (IN)
  S_AXI_WDATA[17]  (IN)
  S_AXI_WDATA[18]  (IN)
  S_AXI_WDATA[19]  (IN)
  S_AXI_WDATA[1]  (IN)
  S_AXI_WDATA[20]  (IN)
  S_AXI_WDATA[21]  (IN)
  S_AXI_WDATA[22]  (IN)
  S_AXI_WDATA[23]  (IN)
  S_AXI_WDATA[24]  (IN)
  S_AXI_WDATA[25]  (IN)
  S_AXI_WDATA[26]  (IN)
  S_AXI_WDATA[27]  (IN)
  S_AXI_WDATA[28]  (IN)
  S_AXI_WDATA[29]  (IN)
  S_AXI_WDATA[2]  (IN)
  S_AXI_WDATA[30]  (IN)
  S_AXI_WDATA[31]  (IN)
  S_AXI_WDATA[3]  (IN)
  S_AXI_WDATA[4]  (IN)
  S_AXI_WDATA[5]  (IN)
  S_AXI_WDATA[6]  (IN)
  S_AXI_WDATA[7]  (IN)
  S_AXI_WDATA[8]  (IN)
  S_AXI_WDATA[9]  (IN)
  S_AXI_WREADY  (OUT)
  S_AXI_WVALID  (IN)
# puts ""

# puts "=== S_AXI_ACLK net ==="
=== S_AXI_ACLK net ===
# set aclk_pin [lindex [get_pins -of_objects $sampler -filter {REF_PIN_NAME == "S_AXI_ACLK"}] 0]
# puts "  pin: $aclk_pin"
  pin: carnot_ising_bd_i/ising_sampler_0/inst/S_AXI_ACLK
# if {$aclk_pin ne ""} {
#     set aclk_net [get_nets -of_objects $aclk_pin]
#     puts "  net: $aclk_net"
#     puts "  ROUTE_STATUS: [get_property ROUTE_STATUS $aclk_net]"
#     set aclk_drivers [get_pins -of_objects $aclk_net -filter {DIRECTION == "OUT"}]
#     puts "  driven by [llength $aclk_drivers] pin(s):"
#     foreach d $aclk_drivers {
#         set dc [get_cells -of_objects $d]
#         set rn [get_property REF_NAME $dc]
#         puts "    $d (REF_NAME=$rn)"
#     }
# }
  net: carnot_ising_bd_i/ising_sampler_0/S_AXI_ACLK
  ROUTE_STATUS: ROUTED
WARNING: [Vivado 12-508] No pins matched 'get_pins -of_objects [get_nets -of_objects carnot_ising_bd_i/ising_sampler_0/inst/S_AXI_ACLK] -filter {DIRECTION == "OUT"}'.
  driven by 0 pin(s):
# puts ""

# puts "=== S_AXI_ARESETN net ==="
=== S_AXI_ARESETN net ===
# set arst_pin [lindex [get_pins -of_objects $sampler -filter {REF_PIN_NAME == "S_AXI_ARESETN"}] 0]
# puts "  pin: $arst_pin"
  pin: carnot_ising_bd_i/ising_sampler_0/inst/S_AXI_ARESETN
# if {$arst_pin ne ""} {
#     set arst_net [get_nets -of_objects $arst_pin]
#     puts "  net: $arst_net"
#     puts "  ROUTE_STATUS: [get_property ROUTE_STATUS $arst_net]"
#     set arst_drivers [get_pins -of_objects $arst_net -filter {DIRECTION == "OUT"}]
#     puts "  driven by [llength $arst_drivers] pin(s):"
#     foreach d $arst_drivers {
#         set dc [get_cells -of_objects $d]
#         set rn [get_property REF_NAME $dc]
#         puts "    $d (REF_NAME=$rn)"
#     }
# }
  net: carnot_ising_bd_i/ising_sampler_0/S_AXI_ARESETN
  ROUTE_STATUS: ROUTED
WARNING: [Vivado 12-508] No pins matched 'get_pins -of_objects [get_nets -of_objects carnot_ising_bd_i/ising_sampler_0/inst/S_AXI_ARESETN] -filter {DIRECTION == "OUT"}'.
  driven by 0 pin(s):
# puts ""

# puts "=== top-level clocks ==="
=== top-level clocks ===
# foreach c [get_clocks] {
#     set name [get_property NAME $c]
#     set period [get_property PERIOD $c]
#     puts "  $name  period=$period ns  (~[expr 1000.0/$period] MHz)"
# }
  clk_pl_0  period=20.625 ns  (~48.484848484848484 MHz)
# puts ""

# puts "=== constant-driver check on sampler AXI pins ==="
=== constant-driver check on sampler AXI pins ===
# foreach rp [list S_AXI_ACLK S_AXI_ARESETN S_AXI_AWVALID S_AXI_WVALID S_AXI_ARVALID S_AXI_BREADY S_AXI_RREADY S_AXI_AWREADY S_AXI_WREADY S_AXI_BVALID S_AXI_ARREADY S_AXI_RVALID] {
#     set p [lindex [get_pins -of_objects $sampler -filter "REF_PIN_NAME == $rp"] 0]
#     if {$p eq ""} { continue }
#     set n [get_nets -of_objects $p]
#     set is_const 0
#     set drv_cells ""
#     foreach d [get_pins -of_objects $n -filter {DIRECTION == "OUT"}] {
#         set dc [get_cells -of_objects $d]
#         set rn [get_property REF_NAME $dc]
#         append drv_cells "$rn "
#         if {$rn eq "GND" || $rn eq "VCC"} { set is_const 1 }
#     }
#     set tag ""
#     if {$is_const} { set tag "  !! CONSTANT DRIVER" }
#     puts "  $rp: drv=[string trim $drv_cells]$tag"
# }
WARNING: [Vivado 12-508] No pins matched 'get_pins -of_objects [get_nets -of_objects carnot_ising_bd_i/ising_sampler_0/inst/S_AXI_ACLK] -filter {DIRECTION == "OUT"}'.
  S_AXI_ACLK: drv=
WARNING: [Vivado 12-508] No pins matched 'get_pins -of_objects [get_nets -of_objects carnot_ising_bd_i/ising_sampler_0/inst/S_AXI_ARESETN] -filter {DIRECTION == "OUT"}'.
  S_AXI_ARESETN: drv=
WARNING: [Vivado 12-508] No pins matched 'get_pins -of_objects [get_nets -of_objects carnot_ising_bd_i/ising_sampler_0/inst/S_AXI_AWVALID] -filter {DIRECTION == "OUT"}'.
  S_AXI_AWVALID: drv=
WARNING: [Vivado 12-508] No pins matched 'get_pins -of_objects [get_nets -of_objects carnot_ising_bd_i/ising_sampler_0/inst/S_AXI_WVALID] -filter {DIRECTION == "OUT"}'.
  S_AXI_WVALID: drv=
WARNING: [Vivado 12-508] No pins matched 'get_pins -of_objects [get_nets -of_objects carnot_ising_bd_i/ising_sampler_0/inst/S_AXI_ARVALID] -filter {DIRECTION == "OUT"}'.
  S_AXI_ARVALID: drv=
WARNING: [Vivado 12-508] No pins matched 'get_pins -of_objects [get_nets -of_objects carnot_ising_bd_i/ising_sampler_0/inst/S_AXI_BREADY] -filter {DIRECTION == "OUT"}'.
  S_AXI_BREADY: drv=
WARNING: [Vivado 12-508] No pins matched 'get_pins -of_objects [get_nets -of_objects carnot_ising_bd_i/ising_sampler_0/inst/S_AXI_RREADY] -filter {DIRECTION == "OUT"}'.
  S_AXI_RREADY: drv=
  S_AXI_AWREADY: drv=carnot_ising_bd_ising_sampler_0_0_ising_sampler_128_sync carnot_ising_bd_ising_sampler_0_0
  S_AXI_WREADY: drv=carnot_ising_bd_ising_sampler_0_0_ising_sampler_128_sync carnot_ising_bd_ising_sampler_0_0
  S_AXI_BVALID: drv=carnot_ising_bd_ising_sampler_0_0_ising_sampler_128_sync carnot_ising_bd_ising_sampler_0_0
  S_AXI_ARREADY: drv=carnot_ising_bd_ising_sampler_0_0_ising_sampler_128_sync carnot_ising_bd_ising_sampler_0_0
  S_AXI_RVALID: drv=carnot_ising_bd_ising_sampler_0_0_ising_sampler_128_sync carnot_ising_bd_ising_sampler_0_0
# puts ""

# puts "=== inspection complete ==="
=== inspection complete ===
# close_design
INFO: [Common 17-206] Exiting Vivado at Wed Apr 22 13:04:02 2026...
